
T2664 000:327 SEGGER J-Link V4.98e Log File (0000ms, 0285ms total)
T2664 000:327 DLL Compiled: May  5 2015 11:00:52 (0000ms, 0285ms total)
T2664 000:327 Logging started @ 2017-08-07 16:17 (0000ms, 0285ms total)
T2664 000:327 JLINK_SetWarnOutHandler(...) (0000ms, 0285ms total)
T2664 000:327 JLINK_OpenEx(...)
Firmware: J-Link ARM-OB STM32 compiled Aug 22 2012 19:52:04
Hardware: V7.00
S/N: 20170611
Feature(s): RDI,FlashDL,FlashBP,JFlash,GDBFull  returns O.K. (0287ms, 0572ms total)
T2664 000:614 JLINK_SetErrorOutHandler(...) (0000ms, 0572ms total)
T2664 000:614 JLINK_ExecCommand("ProjectFile = "E:\BalenceBall\BalenceBall_git\Æ½ºâÐ¡Çò\USER\JLinkSettings.ini"", ...)  returns 0x00 (0002ms, 0574ms total)
T2664 000:616 JLINK_ExecCommand("Device = STM32F103RC", ...)Device "STM32F103RC" selected.  returns 0x00 (0002ms, 0576ms total)
T2664 000:618 JLINK_ExecCommand("DisableConnectionTimeout", ...)  returns 0x01 (0000ms, 0577ms total)
T2664 000:619 JLINK_GetHardwareVersion()  returns 0x11170 (0000ms, 0577ms total)
T2664 000:619 JLINK_GetDLLVersion()  returns 49805 (0000ms, 0577ms total)
T2664 000:619 JLINK_GetFirmwareString(...) (0000ms, 0577ms total)
T2664 000:621 JLINK_GetDLLVersion()  returns 49805 (0000ms, 0577ms total)
T2664 000:621 JLINK_GetCompileDateTime() (0000ms, 0577ms total)
T2664 000:621 JLINK_GetFirmwareString(...) (0000ms, 0577ms total)
T2664 000:622 JLINK_GetHardwareVersion()  returns 0x11170 (0000ms, 0577ms total)
T2664 000:623 JLINK_TIF_Select(JLINKARM_TIF_SWD)  returns 0x00 (0002ms, 0579ms total)
T2664 000:626 JLINK_SetSpeed(5000) (0000ms, 0580ms total)
T2664 000:626 JLINK_GetId() >0x108 TIF>Found SWD-DP with ID 0x1BA01477 >0x0D TIF> >0x28 TIF> >0x0D TIF> >0x28 TIF> >0x0D TIF> >0x21 TIF> >0x0D TIF> >0x28 TIF> >0x0D TIF> >0x28 TIF> >0x0D TIF> >0x28 TIF> >0x0D TIF> >0x21 TIF> >0x0D TIF> >0x21 TIF> >0x0D TIF> >0x28 TIF> >0x0D TIF> >0x21 TIF> >0x0D TIF> >0x21 TIF> >0x108 TIF>Found SWD-DP with ID 0x1BA01477 >0x0D TIF> >0x21 TIF> >0x0D TIF> >0x28 TIF> >0x0D TIF> >0x28 TIF> >0x0D TIF> >0x21 TIF> >0x0D TIF> >0x28 TIF> >0x0D TIF> >0x21 TIF> >0x0D TIF> >0x21 TIF>
 >0x0D TIF> >0x21 TIF> >0x0D TIF> >0x21 TIF> >0x0D TIF> >0x28 TIF> >0x0D TIF> >0x28 TIF> >0x0D TIF> >0x21 TIF> >0x0D TIF> >0x28 TIF> >0x0D TIF> >0x28 TIF> >0x0D TIF> >0x28 TIF> >0x0D TIF> >0x21 TIF> >0x0D TIF> >0x21 TIF> >0x0D TIF> >0x28 TIF> >0x0D TIF> >0x21 TIF> >0x0D TIF> >0x21 TIF>Found Cortex-M3 r1p1, Little endian. -- CPU_WriteMem(4 bytes @ 0xE0002000) -- CPU_ReadMem(4 bytes @ 0xE000EDF0) -- CPU_ReadMem(4 bytes @ 0xE0002000)FPUnit: 6 code (BP) slots and 2 literal slots
 -- CPU_ReadMem(4 bytes @ 0xE000EDFC) -- CPU_ReadMem(4 bytes @ 0xE0001000) -- CPU_WriteMem(4 bytes @ 0xE0001000) -- CPU_ReadMem(4 bytes @ 0xE000ED88) -- CPU_WriteMem(4 bytes @ 0xE000ED88) -- CPU_ReadMem(4 bytes @ 0xE000ED88) -- CPU_WriteMem(4 bytes @ 0xE000ED88)CoreSight components:ROMTbl 0 @ E00FF000 -- CPU_ReadMem(16 bytes @ 0xE00FF000) -- CPU_ReadMem(16 bytes @ 0xE000EFF0) -- CPU_ReadMem(16 bytes @ 0xE000EFE0)ROMTbl 0 [0]: FFF0F000, CID: B105E00D, PID: 001BB000 SCS
 -- CPU_ReadMem(16 bytes @ 0xE0001FF0) -- CPU_ReadMem(16 bytes @ 0xE0001FE0)ROMTbl 0 [1]: FFF02000, CID: B105E00D, PID: 001BB002 DWT -- CPU_ReadMem(16 bytes @ 0xE0002FF0) -- CPU_ReadMem(16 bytes @ 0xE0002FE0)ROMTbl 0 [2]: FFF03000, CID: B105E00D, PID: 000BB003 FPB -- CPU_ReadMem(16 bytes @ 0xE0000FF0) -- CPU_ReadMem(16 bytes @ 0xE0000FE0)ROMTbl 0 [3]: FFF01000, CID: B105E00D, PID: 001BB001 ITM -- CPU_ReadMem(16 bytes @ 0xE00FF010) -- CPU_ReadMem(16 bytes @ 0xE0040FF0)
 -- CPU_ReadMem(16 bytes @ 0xE0040FE0)ROMTbl 0 [4]: FFF41000, CID: B105900D, PID: 001BB923 TPIU-Lite -- CPU_ReadMem(16 bytes @ 0xE0041FF0) -- CPU_ReadMem(16 bytes @ 0xE0041FE0)ROMTbl 0 [5]: FFF42000, CID: B105900D, PID: 101BB924 ETM-M3 >0x0D TIF> >0x21 TIF>  returns 0x1BA01477 (0089ms, 0669ms total)
T2664 000:715 JLINK_GetDLLVersion()  returns 49805 (0001ms, 0670ms total)
T2664 000:716 JLINK_CORE_GetFound()  returns 0x30000FF (0000ms, 0670ms total)
T2664 000:716 JLINK_GetDebugInfo(0x100) -- Value=0xE00FF003  returns 0x00 (0000ms, 0670ms total)
T2664 000:716 JLINK_ReadMem (0xE00FF000, 0x0020 Bytes, ...) -- CPU is running -- CPU_ReadMem(32 bytes @ 0xE00FF000) - Data: 03 F0 F0 FF 03 20 F0 FF 03 30 F0 FF 03 10 F0 FF ...  returns 0x00 (0002ms, 0672ms total)
T2664 000:718 JLINK_ReadMem (0xE000EFF0, 0x0010 Bytes, ...) -- CPU is running -- CPU_ReadMem(16 bytes @ 0xE000EFF0) - Data: 0D 00 00 00 E0 00 00 00 05 00 00 00 B1 00 00 00  returns 0x00 (0001ms, 0673ms total)
T2664 000:719 JLINK_ReadMem (0xE000EFD0, 0x0020 Bytes, ...) -- CPU is running -- CPU_ReadMem(32 bytes @ 0xE000EFD0) - Data: 04 00 00 00 00 00 00 00 00 00 00 00 00 00 00 00 ...  returns 0x00 (0001ms, 0674ms total)
T2664 000:720 JLINK_ReadMem (0xE0001FF0, 0x0010 Bytes, ...) -- CPU is running -- CPU_ReadMem(16 bytes @ 0xE0001FF0) - Data: 0D 00 00 00 E0 00 00 00 05 00 00 00 B1 00 00 00  returns 0x00 (0002ms, 0676ms total)
T2664 000:722 JLINK_ReadMem (0xE0001FD0, 0x0020 Bytes, ...) -- CPU is running -- CPU_ReadMem(32 bytes @ 0xE0001FD0) - Data: 04 00 00 00 00 00 00 00 00 00 00 00 00 00 00 00 ...  returns 0x00 (0001ms, 0677ms total)
T2664 000:723 JLINK_ReadMem (0xE0002FF0, 0x0010 Bytes, ...) -- CPU is running -- CPU_ReadMem(16 bytes @ 0xE0002FF0) - Data: 0D 00 00 00 E0 00 00 00 05 00 00 00 B1 00 00 00  returns 0x00 (0001ms, 0678ms total)
T2664 000:724 JLINK_ReadMem (0xE0002FD0, 0x0020 Bytes, ...) -- CPU is running -- CPU_ReadMem(32 bytes @ 0xE0002FD0) - Data: 04 00 00 00 00 00 00 00 00 00 00 00 00 00 00 00 ...  returns 0x00 (0002ms, 0680ms total)
T2664 000:726 JLINK_ReadMem (0xE0000FF0, 0x0010 Bytes, ...) -- CPU is running -- CPU_ReadMem(16 bytes @ 0xE0000FF0) - Data: 0D 00 00 00 E0 00 00 00 05 00 00 00 B1 00 00 00  returns 0x00 (0001ms, 0681ms total)
T2664 000:727 JLINK_ReadMem (0xE0000FD0, 0x0020 Bytes, ...) -- CPU is running -- CPU_ReadMem(32 bytes @ 0xE0000FD0) - Data: 04 00 00 00 00 00 00 00 00 00 00 00 00 00 00 00 ...  returns 0x00 (0001ms, 0682ms total)
T2664 000:728 JLINK_ReadMem (0xE0040FF0, 0x0010 Bytes, ...) -- CPU is running -- CPU_ReadMem(16 bytes @ 0xE0040FF0) - Data: 0D 00 00 00 90 00 00 00 05 00 00 00 B1 00 00 00  returns 0x00 (0002ms, 0684ms total)
T2664 000:730 JLINK_ReadMem (0xE0040FD0, 0x0020 Bytes, ...) -- CPU is running -- CPU_ReadMem(32 bytes @ 0xE0040FD0) - Data: 04 00 00 00 00 00 00 00 00 00 00 00 00 00 00 00 ...  returns 0x00 (0001ms, 0685ms total)
T2664 000:731 JLINK_ReadMem (0xE0041FF0, 0x0010 Bytes, ...) -- CPU is running -- CPU_ReadMem(16 bytes @ 0xE0041FF0) - Data: 0D 00 00 00 90 00 00 00 05 00 00 00 B1 00 00 00  returns 0x00 (0002ms, 0687ms total)
T2664 000:733 JLINK_ReadMem (0xE0041FD0, 0x0020 Bytes, ...) -- CPU is running -- CPU_ReadMem(32 bytes @ 0xE0041FD0) - Data: 04 00 00 00 00 00 00 00 00 00 00 00 00 00 00 00 ...  returns 0x00 (0001ms, 0688ms total)
T2664 000:734 JLINK_ReadMemU32(0xE000ED00, 0x0001 Items, ...) -- CPU is running -- CPU_ReadMem(4 bytes @ 0xE000ED00) - Data: 31 C2 1F 41  returns 0x01 (0001ms, 0689ms total)
T2664 000:735 JLINK_SetResetType(JLINKARM_RESET_TYPE_NORMAL)  returns JLINKARM_RESET_TYPE_NORMAL (0000ms, 0689ms total)
T2664 000:735 JLINK_Reset() -- CPU is running -- CPU_WriteMem(4 bytes @ 0xE000EDF0) -- CPU is running -- CPU_WriteMem(4 bytes @ 0xE000EDFC) >0x35 TIF> -- CPU is running -- CPU_WriteMem(4 bytes @ 0xE000ED0C) -- CPU is running -- CPU_ReadMem(4 bytes @ 0xE000EDF0) -- CPU is running -- CPU_ReadMem(4 bytes @ 0xE000EDF0) -- CPU is running -- CPU_WriteMem(4 bytes @ 0xE000EDF0) -- CPU is running -- CPU_WriteMem(4 bytes @ 0xE000EDFC) -- CPU is running -- CPU_ReadMem(4 bytes @ 0xE000EDF0)
 -- CPU_WriteMem(4 bytes @ 0xE0002000) -- CPU_ReadMem(4 bytes @ 0xE000EDFC) -- CPU_ReadMem(4 bytes @ 0xE0001000) (0029ms, 0718ms total)
T2664 000:764 JLINK_ReadReg(R15 (PC))  returns 0x080010BC (0000ms, 0718ms total)
T2664 000:764 JLINK_ReadReg(XPSR)  returns 0x01000000 (0000ms, 0718ms total)
T2664 000:764 JLINK_Halt()  returns 0x00 (0000ms, 0718ms total)
T2664 000:764 JLINK_IsHalted()  returns TRUE (0000ms, 0718ms total)
T2664 000:764 JLINK_ReadMemU32(0xE000EDF0, 0x0001 Items, ...) -- CPU_ReadMem(4 bytes @ 0xE000EDF0) - Data: 03 00 03 00  returns 0x01 (0001ms, 0719ms total)
T2664 000:765 JLINK_WriteU32(0xE000EDF0, 0xA05F0003) -- CPU_WriteMem(4 bytes @ 0xE000EDF0)  returns 0x00 (0001ms, 0720ms total)
T2664 000:766 JLINK_WriteU32(0xE000EDFC, 0x01000000) -- CPU_WriteMem(4 bytes @ 0xE000EDFC)  returns 0x00 (0001ms, 0721ms total)
T2664 000:769 JLINK_GetHWStatus(...)  returns 0x00 (0000ms, 0721ms total)
T2664 000:770 JLINK_GetNumBPUnits(Type = 0xFFFFFF00)  returns 0x06 (0000ms, 0721ms total)
T2664 000:770 JLINK_GetNumBPUnits(Type = 0xF0)  returns 0x2000 (0000ms, 0721ms total)
T2664 000:770 JLINK_GetNumWPUnits()  returns 0x04 (0000ms, 0721ms total)
T2664 000:770 JLINK_GetSpeed()  returns 0xFA0 (0000ms, 0721ms total)
T2664 000:771 JLINK_ReadMemU32(0xE000E004, 0x0001 Items, ...) -- CPU_ReadMem(4 bytes @ 0xE000E004) - Data: 01 00 00 00  returns 0x01 (0001ms, 0722ms total)
T2664 000:772 JLINK_ReadMemU32(0xE000E004, 0x0001 Items, ...) -- CPU_ReadMem(4 bytes @ 0xE000E004) - Data: 01 00 00 00  returns 0x01 (0001ms, 0723ms total)
T2664 000:773 JLINK_WriteMem(0xE0001000, 0x001C Bytes, ...) - Data: 01 00 00 00 00 00 00 00 00 00 00 00 00 00 00 00 ... -- CPU_WriteMem(28 bytes @ 0xE0001000)  returns 0x1C (0002ms, 0725ms total)
T2664 000:775 JLINK_ReadMem (0xE0001000, 0x001C Bytes, ...) -- CPU_ReadMem(28 bytes @ 0xE0001000) - Data: 01 00 00 40 00 00 00 00 00 00 00 00 00 00 00 00 ...  returns 0x00 (0001ms, 0726ms total)
T2664 000:776 JLINK_ReadReg(R15 (PC))  returns 0x080010BC (0000ms, 0726ms total)
T2664 000:776 JLINK_ReadReg(XPSR)  returns 0x01000000 (0001ms, 0727ms total)
T2664 000:879 JLINK_SetResetType(JLINKARM_RESET_TYPE_NORMAL)  returns JLINKARM_RESET_TYPE_NORMAL (0000ms, 0727ms total)
T2664 000:879 JLINK_Reset() -- CPU_WriteMem(4 bytes @ 0xE000EDF0) -- CPU_WriteMem(4 bytes @ 0xE000EDFC) >0x35 TIF> -- CPU_WriteMem(4 bytes @ 0xE000ED0C) -- CPU_ReadMem(4 bytes @ 0xE000EDF0) -- CPU_ReadMem(4 bytes @ 0xE000EDF0) -- CPU_WriteMem(4 bytes @ 0xE000EDF0) -- CPU_WriteMem(4 bytes @ 0xE000EDFC) -- CPU is running -- CPU_ReadMem(4 bytes @ 0xE000EDF0) -- CPU_WriteMem(4 bytes @ 0xE0002000) -- CPU_ReadMem(4 bytes @ 0xE000EDFC) -- CPU_ReadMem(4 bytes @ 0xE0001000) (0028ms, 0755ms total)
T2664 000:907 JLINK_ReadReg(R15 (PC))  returns 0x080010BC (0000ms, 0755ms total)
T2664 000:907 JLINK_ReadReg(XPSR)  returns 0x01000000 (0000ms, 0755ms total)
T2664 000:907 JLINK_ReadMem (0x08000FBC, 0x003C Bytes, ...) -- CPU_ReadMem(128 bytes @ 0x08000F80) -- Updating C cache (128 bytes @ 0x08000F80) -- Read from C cache (60 bytes @ 0x08000FBC) - Data: AD F8 0A 00 AD F8 0C 00 AD F8 10 00 0C 20 AD F8 ...  returns 0x00 (0004ms, 0759ms total)
T2664 000:911 JLINK_ReadMem (0x08000FF8, 0x0008 Bytes, ...) -- Read from C cache (8 bytes @ 0x08000FF8) - Data: C1 FD 00 28 54 D0 2B 48  returns 0x00 (0000ms, 0759ms total)
T2664 000:911 JLINK_ReadMem (0x08001000, 0x0034 Bytes, ...) -- CPU_ReadMem(64 bytes @ 0x08001000) -- Updating C cache (64 bytes @ 0x08001000) -- Read from C cache (52 bytes @ 0x08001000) - Data: 00 F0 3C FD C4 B2 AA 2C 03 D0 2A 48 00 88 00 B9 ...  returns 0x00 (0002ms, 0761ms total)
T2664 000:913 JLINK_ReadMem (0x08001034, 0x003C Bytes, ...) -- CPU_ReadMem(64 bytes @ 0x08001040) -- Updating C cache (64 bytes @ 0x08001040) -- Read from C cache (60 bytes @ 0x08001034) - Data: 1F 49 08 80 EA E7 1E 48 00 88 00 F4 00 40 F8 B9 ...  returns 0x00 (0002ms, 0763ms total)
T2664 000:915 JLINK_ReadMem (0x08001070, 0x003C Bytes, ...) -- CPU_ReadMem(64 bytes @ 0x08001080) -- Updating C cache (64 bytes @ 0x08001080) -- Read from C cache (60 bytes @ 0x08001070) - Data: A0 FC 19 E0 0D 2C 06 D1 0E 48 00 88 40 F4 80 40 ...  returns 0x00 (0002ms, 0765ms total)
T2664 000:917 JLINK_ReadMem (0x080010AC, 0x003C Bytes, ...) -- CPU_ReadMem(64 bytes @ 0x080010C0) -- Updating C cache (64 bytes @ 0x080010C0) -- Read from C cache (60 bytes @ 0x080010AC) - Data: 00 38 01 40 00 08 01 40 0C 02 00 20 D8 02 00 20 ...  returns 0x00 (0001ms, 0766ms total)
T2664 001:203 JLINK_ReadMem (0x40000400, 0x0010 Bytes, ...) -- CPU_ReadMem(16 bytes @ 0x40000400) - Data: 00 00 00 00 00 00 00 00 00 00 00 00 00 00 00 00  returns 0x00 (0002ms, 0768ms total)
T2664 001:205 JLINK_ReadMem (0x40000410, 0x0004 Bytes, ...) -- CPU_ReadMem(4 bytes @ 0x40000410) - Data: 00 00 00 00  returns 0x00 (0002ms, 0770ms total)
T2664 001:207 JLINK_ReadMem (0x40000418, 0x0014 Bytes, ...) -- CPU_ReadMem(20 bytes @ 0x40000418) - Data: 00 00 00 00 00 00 00 00 00 00 00 00 00 00 00 00 ...  returns 0x00 (0001ms, 0771ms total)
T2664 001:208 JLINK_ReadMem (0x4000042C, 0x0004 Bytes, ...) -- CPU_ReadMem(4 bytes @ 0x4000042C) - Data: 00 00 00 00  returns 0x00 (0002ms, 0773ms total)
T2664 001:210 JLINK_ReadMem (0x40000434, 0x000C Bytes, ...) -- CPU_ReadMem(12 bytes @ 0x40000434) - Data: 00 00 00 00 00 00 00 00 00 00 00 00  returns 0x00 (0001ms, 0774ms total)
T2664 001:211 JLINK_ReadMem (0x40000440, 0x0004 Bytes, ...) -- CPU_ReadMem(4 bytes @ 0x40000440) - Data: 00 00 00 00  returns 0x00 (0001ms, 0775ms total)
T2664 001:212 JLINK_ReadMem (0x40000448, 0x0004 Bytes, ...) -- CPU_ReadMem(4 bytes @ 0x40000448) - Data: 00 00 00 00  returns 0x00 (0001ms, 0776ms total)
T2664 001:213 JLINK_ReadMem (0x4000044C, 0x0004 Bytes, ...) -- CPU_ReadMem(4 bytes @ 0x4000044C) - Data: 00 00 00 00  returns 0x00 (0002ms, 0778ms total)
T2664 003:680 JLINK_ReadMem (0x200002D8, 0x0020 Bytes, ...) -- CPU_ReadMem(64 bytes @ 0x200002C0) -- Updating C cache (64 bytes @ 0x200002C0) -- Read from C cache (32 bytes @ 0x200002D8) - Data: AA FF 00 42 00 5D 00 00 00 00 00 00 00 00 00 00 ...  returns 0x00 (0002ms, 0780ms total)
T2664 003:684 JLINK_ReadMem (0x2000020C, 0x0002 Bytes, ...) -- CPU_ReadMem(64 bytes @ 0x20000200) -- Updating C cache (64 bytes @ 0x20000200) -- Read from C cache (2 bytes @ 0x2000020C) - Data: 00 00  returns 0x00 (0002ms, 0782ms total)
T10C4 003:789 JLINK_SetBPEx(Addr = 0x08000214, Type = 0xFFFFFFF2)  returns 0x00000001 (0000ms, 0782ms total)
T10C4 003:789 JLINK_SetBPEx(Addr = 0x08000270, Type = 0xFFFFFFF2)  returns 0x00000002 (0001ms, 0783ms total)
T10C4 003:790 JLINK_Go() -- CPU_WriteMem(4 bytes @ 0xE0002000) -- CPU_WriteMem(4 bytes @ 0xE0002000) -- CPU_ReadMem(4 bytes @ 0xE0001000) -- CPU_WriteMem(4 bytes @ 0xE0002008) -- CPU_WriteMem(4 bytes @ 0xE000200C) -- CPU_WriteMem(4 bytes @ 0xE0002010) -- CPU_WriteMem(4 bytes @ 0xE0002014) -- CPU_WriteMem(4 bytes @ 0xE0002018) -- CPU_WriteMem(4 bytes @ 0xE000201C) -- CPU_WriteMem(4 bytes @ 0xE0001004) (0010ms, 0793ms total)
T10C4 003:900 JLINK_IsHalted()  returns TRUE (0004ms, 0797ms total)
T10C4 003:904 JLINK_Halt()  returns 0x00 (0001ms, 0794ms total)
T10C4 003:905 JLINK_IsHalted()  returns TRUE (0000ms, 0794ms total)
T10C4 003:905 JLINK_IsHalted()  returns TRUE (0000ms, 0794ms total)
T10C4 003:905 JLINK_IsHalted()  returns TRUE (0000ms, 0794ms total)
T10C4 003:905 JLINK_ReadReg(R15 (PC))  returns 0x08000214 (0000ms, 0794ms total)
T10C4 003:905 JLINK_ReadReg(XPSR)  returns 0x21000000 (0000ms, 0794ms total)
T10C4 003:905 JLINK_ClrBPEx(BPHandle = 0x00000001)  returns 0x00 (0000ms, 0794ms total)
T10C4 003:905 JLINK_ClrBPEx(BPHandle = 0x00000002)  returns 0x00 (0000ms, 0794ms total)
T10C4 003:905 JLINK_ReadMemU32(0xE000ED30, 0x0001 Items, ...) -- CPU_ReadMem(4 bytes @ 0xE000ED30) - Data: 03 00 00 00  returns 0x01 (0001ms, 0795ms total)
T10C4 003:906 JLINK_ReadMemU32(0xE0001028, 0x0001 Items, ...) -- CPU_ReadMem(4 bytes @ 0xE0001028) - Data: 00 00 00 00  returns 0x01 (0001ms, 0796ms total)
T10C4 003:907 JLINK_ReadMemU32(0xE0001038, 0x0001 Items, ...) -- CPU_ReadMem(4 bytes @ 0xE0001038) - Data: 00 02 00 00  returns 0x01 (0001ms, 0797ms total)
T10C4 003:908 JLINK_ReadMemU32(0xE0001048, 0x0001 Items, ...) -- CPU_ReadMem(4 bytes @ 0xE0001048) - Data: 00 00 00 00  returns 0x01 (0001ms, 0798ms total)
T10C4 003:910 JLINK_ReadMemU32(0xE0001058, 0x0001 Items, ...) -- CPU_ReadMem(4 bytes @ 0xE0001058) - Data: 00 00 00 00  returns 0x01 (0001ms, 0800ms total)
T10C4 003:911 JLINK_ReadReg(R0)  returns 0x20000400 (0000ms, 0800ms total)
T10C4 003:911 JLINK_ReadReg(R1)  returns 0x20000600 (0000ms, 0800ms total)
T10C4 003:911 JLINK_ReadReg(R2)  returns 0x20000600 (0000ms, 0800ms total)
T10C4 003:911 JLINK_ReadReg(R3)  returns 0x20000600 (0000ms, 0800ms total)
T10C4 003:911 JLINK_ReadReg(R4)  returns 0x00000000 (0000ms, 0800ms total)
T10C4 003:911 JLINK_ReadReg(R5)  returns 0x200003A0 (0000ms, 0800ms total)
T10C4 003:911 JLINK_ReadReg(R6)  returns 0x00000000 (0000ms, 0800ms total)
T10C4 003:911 JLINK_ReadReg(R7)  returns 0x00000000 (0000ms, 0800ms total)
T10C4 003:911 JLINK_ReadReg(R8)  returns 0x00000000 (0000ms, 0800ms total)
T10C4 003:911 JLINK_ReadReg(R9)  returns 0x20000160 (0000ms, 0800ms total)
T10C4 003:911 JLINK_ReadReg(R10)  returns 0x08003B30 (0000ms, 0800ms total)
T10C4 003:911 JLINK_ReadReg(R11)  returns 0x00000000 (0001ms, 0801ms total)
T10C4 003:912 JLINK_ReadReg(R12)  returns 0x200003E0 (0000ms, 0801ms total)
T10C4 003:912 JLINK_ReadReg(R13 (SP))  returns 0x20000A00 (0000ms, 0801ms total)
T10C4 003:912 JLINK_ReadReg(R14)  returns 0x08000205 (0000ms, 0801ms total)
T10C4 003:912 JLINK_ReadReg(R15 (PC))  returns 0x08000214 (0000ms, 0801ms total)
T10C4 003:912 JLINK_ReadReg(XPSR)  returns 0x21000000 (0000ms, 0801ms total)
T10C4 003:912 JLINK_ReadReg(MSP)  returns 0x20000A00 (0000ms, 0801ms total)
T10C4 003:912 JLINK_ReadReg(PSP)  returns 0x20001000 (0000ms, 0801ms total)
T10C4 003:912 JLINK_ReadReg(CFBP)  returns 0x00000000 (0000ms, 0801ms total)
T2664 003:919 JLINK_ReadMemU32(0xE0001004, 0x0001 Items, ...) -- CPU_ReadMem(4 bytes @ 0xE0001004) - Data: D6 37 00 00  returns 0x01 (0001ms, 0802ms total)
T2664 003:923 JLINK_ReadMem (0x40000400, 0x0010 Bytes, ...) -- CPU_ReadMem(16 bytes @ 0x40000400) - Data: 00 00 00 00 00 00 00 00 00 00 00 00 00 00 00 00  returns 0x00 (0001ms, 0803ms total)
T2664 003:924 JLINK_ReadMem (0x40000410, 0x0004 Bytes, ...) -- CPU_ReadMem(4 bytes @ 0x40000410) - Data: 00 00 00 00  returns 0x00 (0001ms, 0804ms total)
T2664 003:925 JLINK_ReadMem (0x40000418, 0x0014 Bytes, ...) -- CPU_ReadMem(20 bytes @ 0x40000418) - Data: 00 00 00 00 00 00 00 00 00 00 00 00 00 00 00 00 ...  returns 0x00 (0002ms, 0806ms total)
T2664 003:927 JLINK_ReadMem (0x4000042C, 0x0004 Bytes, ...) -- CPU_ReadMem(4 bytes @ 0x4000042C) - Data: 00 00 00 00  returns 0x00 (0000ms, 0806ms total)
T2664 003:927 JLINK_ReadMem (0x40000434, 0x000C Bytes, ...) -- CPU_ReadMem(12 bytes @ 0x40000434) - Data: 00 00 00 00 00 00 00 00 00 00 00 00  returns 0x00 (0003ms, 0809ms total)
T2664 003:930 JLINK_ReadMem (0x40000440, 0x0004 Bytes, ...) -- CPU_ReadMem(4 bytes @ 0x40000440) - Data: 00 00 00 00  returns 0x00 (0001ms, 0810ms total)
T2664 003:931 JLINK_ReadMem (0x40000448, 0x0004 Bytes, ...) -- CPU_ReadMem(4 bytes @ 0x40000448) - Data: 00 00 00 00  returns 0x00 (0001ms, 0811ms total)
T2664 003:932 JLINK_ReadMem (0x4000044C, 0x0004 Bytes, ...) -- CPU_ReadMem(4 bytes @ 0x4000044C) - Data: 00 00 00 00  returns 0x00 (0001ms, 0812ms total)
T2664 003:946 JLINK_ReadMem (0x08000130, 0x003C Bytes, ...) -- CPU_ReadMem(128 bytes @ 0x08000100) -- Updating C cache (128 bytes @ 0x08000100) -- Read from C cache (60 bytes @ 0x08000130) - Data: 00 F0 02 F8 00 F0 5F F8 0A A0 90 E8 00 0C 82 44 ...  returns 0x00 (0003ms, 0815ms total)
T2664 003:949 JLINK_ReadMem (0x0800016C, 0x003C Bytes, ...) -- CPU_ReadMem(64 bytes @ 0x08000180) -- Updating C cache (64 bytes @ 0x08000180) -- Read from C cache (60 bytes @ 0x0800016C) - Data: 0A 44 4F F0 00 0C 10 F8 01 3B 13 F0 07 04 08 BF ...  returns 0x00 (0002ms, 0817ms total)
T2664 003:951 JLINK_ReadMem (0x080001A8, 0x003C Bytes, ...) -- CPU_ReadMem(64 bytes @ 0x080001C0) -- Updating C cache (64 bytes @ 0x080001C0) -- Read from C cache (60 bytes @ 0x080001A8) - Data: 6D 1E 58 BF 01 F8 01 CB FA D5 05 E0 14 F8 01 6B ...  returns 0x00 (0002ms, 0819ms total)
T2664 003:953 JLINK_ReadMem (0x080001E4, 0x003C Bytes, ...) -- CPU_ReadMem(64 bytes @ 0x08000200) -- Updating C cache (64 bytes @ 0x08000200) -- Read from C cache (60 bytes @ 0x080001E4) - Data: 64 29 02 F0 C5 84 00 20 70 47 1F B5 1F BD 10 B5 ...  returns 0x00 (0001ms, 0820ms total)
T2664 003:975 JLINK_ReadMem (0x08000270, 0x003C Bytes, ...) -- CPU_ReadMem(128 bytes @ 0x08000240) -- Updating C cache (128 bytes @ 0x08000240) -- Read from C cache (60 bytes @ 0x08000270) - Data: 47 21 44 F6 1F 60 00 F0 29 F9 47 21 41 F2 87 30 ...  returns 0x00 (0003ms, 0823ms total)
T2664 004:062 JLINK_ReadMem (0x08000220, 0x003C Bytes, ...) -- Read from C cache (60 bytes @ 0x08000220) - Data: 4F F4 E1 30 00 F0 97 FE 00 F0 34 F9 00 F0 53 FD ...  returns 0x00 (0000ms, 0823ms total)
T10C4 006:465 JLINK_SetBPEx(Addr = 0x08000270, Type = 0xFFFFFFF2)  returns 0x00000003 (0001ms, 0824ms total)
T10C4 006:466 JLINK_Go() -- CPU_WriteMem(4 bytes @ 0xE0002000) -- CPU_ReadMem(4 bytes @ 0xE0001000) -- CPU_WriteMem(4 bytes @ 0xE0002008) -- CPU_WriteMem(4 bytes @ 0xE000200C) (0006ms, 0830ms total)
T10C4 006:573 JLINK_IsHalted()  returns FALSE (0001ms, 0831ms total)
T10C4 006:674 JLINK_IsHalted()  returns FALSE (0001ms, 0831ms total)
T10C4 006:776 JLINK_IsHalted()  returns FALSE (0001ms, 0831ms total)
T10C4 006:878 JLINK_IsHalted()  returns TRUE (0004ms, 0834ms total)
T10C4 006:882 JLINK_Halt()  returns 0x00 (0000ms, 0830ms total)
T10C4 006:882 JLINK_IsHalted()  returns TRUE (0000ms, 0830ms total)
T10C4 006:882 JLINK_IsHalted()  returns TRUE (0000ms, 0830ms total)
T10C4 006:882 JLINK_IsHalted()  returns TRUE (0000ms, 0830ms total)
T10C4 006:882 JLINK_ReadReg(R15 (PC))  returns 0x08000270 (0000ms, 0830ms total)
T10C4 006:882 JLINK_ReadReg(XPSR)  returns 0x41000000 (0000ms, 0830ms total)
T10C4 006:882 JLINK_ClrBPEx(BPHandle = 0x00000003)  returns 0x00 (0000ms, 0830ms total)
T10C4 006:882 JLINK_ReadMemU32(0xE000ED30, 0x0001 Items, ...) -- CPU_ReadMem(4 bytes @ 0xE000ED30) - Data: 03 00 00 00  returns 0x01 (0001ms, 0831ms total)
T10C4 006:883 JLINK_ReadMemU32(0xE0001028, 0x0001 Items, ...) -- CPU_ReadMem(4 bytes @ 0xE0001028) - Data: 00 00 00 00  returns 0x01 (0001ms, 0832ms total)
T10C4 006:884 JLINK_ReadMemU32(0xE0001038, 0x0001 Items, ...) -- CPU_ReadMem(4 bytes @ 0xE0001038) - Data: 00 02 00 00  returns 0x01 (0001ms, 0833ms total)
T10C4 006:885 JLINK_ReadMemU32(0xE0001048, 0x0001 Items, ...) -- CPU_ReadMem(4 bytes @ 0xE0001048) - Data: 00 00 00 00  returns 0x01 (0001ms, 0834ms total)
T10C4 006:886 JLINK_ReadMemU32(0xE0001058, 0x0001 Items, ...) -- CPU_ReadMem(4 bytes @ 0xE0001058) - Data: 00 00 00 00  returns 0x01 (0001ms, 0835ms total)
T10C4 006:888 JLINK_ReadReg(R0)  returns 0x20000288 (0000ms, 0835ms total)
T10C4 006:888 JLINK_ReadReg(R1)  returns 0x3F800000 (0000ms, 0835ms total)
T10C4 006:888 JLINK_ReadReg(R2)  returns 0x00000000 (0000ms, 0835ms total)
T10C4 006:888 JLINK_ReadReg(R3)  returns 0x00000000 (0000ms, 0835ms total)
T10C4 006:888 JLINK_ReadReg(R4)  returns 0x00000000 (0000ms, 0835ms total)
T10C4 006:888 JLINK_ReadReg(R5)  returns 0x200003A0 (0000ms, 0835ms total)
T10C4 006:888 JLINK_ReadReg(R6)  returns 0x00000000 (0000ms, 0835ms total)
T10C4 006:888 JLINK_ReadReg(R7)  returns 0x00000000 (0000ms, 0835ms total)
T10C4 006:888 JLINK_ReadReg(R8)  returns 0x00000000 (0000ms, 0835ms total)
T10C4 006:888 JLINK_ReadReg(R9)  returns 0x20000160 (0000ms, 0835ms total)
T10C4 006:888 JLINK_ReadReg(R10)  returns 0x08003B30 (0000ms, 0835ms total)
T10C4 006:888 JLINK_ReadReg(R11)  returns 0x00000000 (0000ms, 0835ms total)
T10C4 006:888 JLINK_ReadReg(R12)  returns 0x00000004 (0000ms, 0835ms total)
T10C4 006:888 JLINK_ReadReg(R13 (SP))  returns 0x20000A00 (0000ms, 0835ms total)
T10C4 006:888 JLINK_ReadReg(R14)  returns 0x08000271 (0000ms, 0835ms total)
T10C4 006:888 JLINK_ReadReg(R15 (PC))  returns 0x08000270 (0000ms, 0835ms total)
T10C4 006:888 JLINK_ReadReg(XPSR)  returns 0x41000000 (0000ms, 0835ms total)
T10C4 006:888 JLINK_ReadReg(MSP)  returns 0x20000A00 (0000ms, 0835ms total)
T10C4 006:888 JLINK_ReadReg(PSP)  returns 0x20001000 (0000ms, 0835ms total)
T10C4 006:888 JLINK_ReadReg(CFBP)  returns 0x00000000 (0000ms, 0835ms total)
T2664 006:889 JLINK_ReadMemU32(0xE0001004, 0x0001 Items, ...) -- CPU_ReadMem(4 bytes @ 0xE0001004) - Data: EA 1C 56 01  returns 0x01 (0001ms, 0836ms total)
T2664 006:891 JLINK_ReadMem (0x40000400, 0x0010 Bytes, ...) -- CPU_ReadMem(16 bytes @ 0x40000400) - Data: 00 00 00 00 00 00 00 00 00 00 00 00 00 00 00 00  returns 0x00 (0001ms, 0837ms total)
T2664 006:892 JLINK_ReadMem (0x40000410, 0x0004 Bytes, ...) -- CPU_ReadMem(4 bytes @ 0x40000410) - Data: 00 00 00 00  returns 0x00 (0001ms, 0838ms total)
T2664 006:893 JLINK_ReadMem (0x40000418, 0x0014 Bytes, ...) -- CPU_ReadMem(20 bytes @ 0x40000418) - Data: 00 00 00 00 00 00 00 00 00 00 00 00 00 00 00 00 ...  returns 0x00 (0001ms, 0839ms total)
T2664 006:894 JLINK_ReadMem (0x4000042C, 0x0004 Bytes, ...) -- CPU_ReadMem(4 bytes @ 0x4000042C) - Data: 00 00 00 00  returns 0x00 (0001ms, 0840ms total)
T2664 006:895 JLINK_ReadMem (0x40000434, 0x000C Bytes, ...) -- CPU_ReadMem(12 bytes @ 0x40000434) - Data: 00 00 00 00 00 00 00 00 00 00 00 00  returns 0x00 (0002ms, 0842ms total)
T2664 006:897 JLINK_ReadMem (0x40000440, 0x0004 Bytes, ...) -- CPU_ReadMem(4 bytes @ 0x40000440) - Data: 00 00 00 00  returns 0x00 (0001ms, 0843ms total)
T2664 006:898 JLINK_ReadMem (0x40000448, 0x0004 Bytes, ...) -- CPU_ReadMem(4 bytes @ 0x40000448) - Data: 00 00 00 00  returns 0x00 (0001ms, 0844ms total)
T2664 006:899 JLINK_ReadMem (0x4000044C, 0x0004 Bytes, ...) -- CPU_ReadMem(4 bytes @ 0x4000044C) - Data: 00 00 00 00  returns 0x00 (0001ms, 0845ms total)
T2664 006:906 JLINK_ReadMem (0x08000262, 0x0002 Bytes, ...) -- CPU_ReadMem(64 bytes @ 0x08000240) -- Updating C cache (64 bytes @ 0x08000240) -- Read from C cache (2 bytes @ 0x08000262) - Data: 00 23  returns 0x00 (0002ms, 0847ms total)
T2664 006:908 JLINK_ReadMem (0x08000264, 0x003C Bytes, ...) -- CPU_ReadMem(64 bytes @ 0x08000280) -- Updating C cache (64 bytes @ 0x08000280) -- Read from C cache (60 bytes @ 0x08000264) - Data: 1A 46 4F F0 7E 51 0A 48 00 F0 8F FB 47 21 44 F6 ...  returns 0x00 (0002ms, 0849ms total)
T10C4 008:008 JLINK_Step() -- Read from C cache (2 bytes @ 0x08000270) -- Simulated  returns 0x00 (0002ms, 0851ms total)
T10C4 008:010 JLINK_ReadReg(R15 (PC))  returns 0x08000272 (0000ms, 0851ms total)
T10C4 008:010 JLINK_ReadReg(XPSR)  returns 0x01000000 (0000ms, 0851ms total)
T10C4 008:010 JLINK_Step() -- Read from C cache (2 bytes @ 0x08000272) -- Read from C cache (2 bytes @ 0x08000274) -- Simulated  returns 0x00 (0001ms, 0852ms total)
T10C4 008:011 JLINK_ReadReg(R15 (PC))  returns 0x08000276 (0000ms, 0852ms total)
T10C4 008:011 JLINK_ReadReg(XPSR)  returns 0x01000000 (0000ms, 0852ms total)
T10C4 008:011 JLINK_Step() -- Read from C cache (2 bytes @ 0x08000276) -- Read from C cache (2 bytes @ 0x08000278) -- Simulated  returns 0x00 (0000ms, 0852ms total)
T10C4 008:011 JLINK_ReadReg(R15 (PC))  returns 0x080004CC (0000ms, 0852ms total)
T10C4 008:011 JLINK_ReadReg(XPSR)  returns 0x01000000 (0000ms, 0852ms total)
T10C4 008:011 JLINK_ReadReg(R0)  returns 0x00004E1F (0000ms, 0852ms total)
T10C4 008:011 JLINK_ReadReg(R1)  returns 0x00000047 (0000ms, 0852ms total)
T10C4 008:011 JLINK_ReadReg(R2)  returns 0x00000000 (0000ms, 0852ms total)
T10C4 008:011 JLINK_ReadReg(R3)  returns 0x00000000 (0000ms, 0852ms total)
T10C4 008:011 JLINK_ReadReg(R4)  returns 0x00000000 (0000ms, 0852ms total)
T10C4 008:011 JLINK_ReadReg(R5)  returns 0x200003A0 (0000ms, 0852ms total)
T10C4 008:011 JLINK_ReadReg(R6)  returns 0x00000000 (0000ms, 0852ms total)
T10C4 008:011 JLINK_ReadReg(R7)  returns 0x00000000 (0001ms, 0853ms total)
T10C4 008:012 JLINK_ReadReg(R8)  returns 0x00000000 (0000ms, 0853ms total)
T10C4 008:012 JLINK_ReadReg(R9)  returns 0x20000160 (0000ms, 0853ms total)
T10C4 008:012 JLINK_ReadReg(R10)  returns 0x08003B30 (0000ms, 0853ms total)
T10C4 008:012 JLINK_ReadReg(R11)  returns 0x00000000 (0000ms, 0853ms total)
T10C4 008:012 JLINK_ReadReg(R12)  returns 0x00000004 (0000ms, 0853ms total)
T10C4 008:012 JLINK_ReadReg(R13 (SP))  returns 0x20000A00 (0000ms, 0853ms total)
T10C4 008:012 JLINK_ReadReg(R14)  returns 0x0800027B (0000ms, 0853ms total)
T10C4 008:012 JLINK_ReadReg(R15 (PC))  returns 0x080004CC (0000ms, 0853ms total)
T10C4 008:012 JLINK_ReadReg(XPSR)  returns 0x01000000 (0000ms, 0853ms total)
T10C4 008:012 JLINK_ReadReg(MSP)  returns 0x20000A00 (0000ms, 0853ms total)
T10C4 008:012 JLINK_ReadReg(PSP)  returns 0x20001000 (0000ms, 0853ms total)
T10C4 008:012 JLINK_ReadReg(CFBP)  returns 0x00000000 (0000ms, 0853ms total)
T2664 008:013 JLINK_ReadMem (0x00000000, 0x0002 Bytes, ...) -- CPU_ReadMem(4 bytes @ 0x00000004) -- CPU_ReadMem(64 bytes @ 0x08000000) -- Updating C cache (64 bytes @ 0x08000000) -- Read from C cache (2 bytes @ 0x08000000) - Data: 00 0A  returns 0x00 (0002ms, 0855ms total)
T2664 008:024 JLINK_ReadMemU32(0xE0001004, 0x0001 Items, ...) - Data: EA 1C 56 01  returns 0x01 (0000ms, 0856ms total)
T2664 008:024 JLINK_ReadMem (0x40000400, 0x0010 Bytes, ...) -- CPU_ReadMem(16 bytes @ 0x40000400) - Data: 00 00 00 00 00 00 00 00 00 00 00 00 00 00 00 00  returns 0x00 (0001ms, 0857ms total)
T2664 008:025 JLINK_ReadMem (0x40000410, 0x0004 Bytes, ...) -- CPU_ReadMem(4 bytes @ 0x40000410) - Data: 00 00 00 00  returns 0x00 (0001ms, 0858ms total)
T2664 008:026 JLINK_ReadMem (0x40000418, 0x0014 Bytes, ...) -- CPU_ReadMem(20 bytes @ 0x40000418) - Data: 00 00 00 00 00 00 00 00 00 00 00 00 00 00 00 00 ...  returns 0x00 (0001ms, 0859ms total)
T2664 008:027 JLINK_ReadMem (0x4000042C, 0x0004 Bytes, ...) -- CPU_ReadMem(4 bytes @ 0x4000042C) - Data: 00 00 00 00  returns 0x00 (0002ms, 0861ms total)
T2664 008:029 JLINK_ReadMem (0x40000434, 0x000C Bytes, ...) -- CPU_ReadMem(12 bytes @ 0x40000434) - Data: 00 00 00 00 00 00 00 00 00 00 00 00  returns 0x00 (0001ms, 0862ms total)
T2664 008:030 JLINK_ReadMem (0x40000440, 0x0004 Bytes, ...) -- CPU_ReadMem(4 bytes @ 0x40000440) - Data: 00 00 00 00  returns 0x00 (0001ms, 0863ms total)
T2664 008:031 JLINK_ReadMem (0x40000448, 0x0004 Bytes, ...) -- CPU_ReadMem(4 bytes @ 0x40000448) - Data: 00 00 00 00  returns 0x00 (0001ms, 0864ms total)
T2664 008:032 JLINK_ReadMem (0x4000044C, 0x0004 Bytes, ...) -- CPU_ReadMem(4 bytes @ 0x4000044C) - Data: 00 00 00 00  returns 0x00 (0001ms, 0865ms total)
T2664 008:040 JLINK_ReadMem (0x080003CC, 0x0034 Bytes, ...) -- CPU_ReadMem(64 bytes @ 0x080003C0) -- Updating C cache (64 bytes @ 0x080003C0) -- Read from C cache (52 bytes @ 0x080003CC) - Data: 4F F4 1F 00 88 60 FF F7 DA FF 4F F0 00 60 29 49 ...  returns 0x00 (0002ms, 0867ms total)
T2664 008:042 JLINK_ReadMem (0x08000400, 0x0008 Bytes, ...) -- CPU_ReadMem(64 bytes @ 0x08000400) -- Updating C cache (64 bytes @ 0x08000400) -- Read from C cache (8 bytes @ 0x08000400) - Data: 23 60 27 E0 1F 4B 20 4C  returns 0x00 (0001ms, 0868ms total)
T2664 008:043 JLINK_ReadMem (0x08000408, 0x003C Bytes, ...) -- CPU_ReadMem(64 bytes @ 0x08000440) -- Updating C cache (64 bytes @ 0x08000440) -- Read from C cache (60 bytes @ 0x08000408) - Data: 23 60 23 E0 18 4B 5B 68 03 F4 70 10 16 4B 5B 68 ...  returns 0x00 (0002ms, 0870ms total)
T2664 008:045 JLINK_ReadMem (0x08000444, 0x003C Bytes, ...) -- Read from C cache (60 bytes @ 0x08000444) - Data: 43 43 10 4C 23 60 03 E0 0D 4B 0E 4C 23 60 00 BF ...  returns 0x00 (0000ms, 0870ms total)
T2664 008:045 JLINK_ReadMem (0x08000494, 0x003C Bytes, ...) -- CPU_ReadMem(128 bytes @ 0x08000480) -- Updating C cache (128 bytes @ 0x08000480) -- Read from C cache (60 bytes @ 0x08000494) - Data: 08 B5 01 21 10 20 01 F0 4B F9 4F F4 00 50 AD F8 ...  returns 0x00 (0003ms, 0873ms total)
T2664 008:073 JLINK_ReadMem (0x080004D4, 0x003C Bytes, ...) -- CPU_ReadMem(64 bytes @ 0x08000500) -- Updating C cache (64 bytes @ 0x08000500) -- Read from C cache (60 bytes @ 0x080004D4) - Data: 01 21 02 20 01 F0 39 F9 01 21 04 20 01 F0 28 F9 ...  returns 0x00 (0002ms, 0875ms total)
T2664 008:181 JLINK_ReadMem (0x080004D0, 0x003C Bytes, ...) -- Read from C cache (60 bytes @ 0x080004D0) - Data: 05 46 0C 46 01 21 02 20 01 F0 39 F9 01 21 04 20 ...  returns 0x00 (0000ms, 0875ms total)
T10C4 009:610 JLINK_Step() -- Read from C cache (2 bytes @ 0x080004CC) -- CPU_WriteMem(12 bytes @ 0x200009F4) -- Simulated  returns 0x00 (0003ms, 0878ms total)
T10C4 009:613 JLINK_ReadReg(R15 (PC))  returns 0x080004CE (0000ms, 0878ms total)
T10C4 009:613 JLINK_ReadReg(XPSR)  returns 0x01000000 (0001ms, 0879ms total)
T10C4 009:614 JLINK_ReadReg(R0)  returns 0x00004E1F (0000ms, 0879ms total)
T10C4 009:614 JLINK_ReadReg(R1)  returns 0x00000047 (0000ms, 0879ms total)
T10C4 009:614 JLINK_ReadReg(R2)  returns 0x00000000 (0000ms, 0879ms total)
T10C4 009:614 JLINK_ReadReg(R3)  returns 0x00000000 (0000ms, 0879ms total)
T10C4 009:614 JLINK_ReadReg(R4)  returns 0x00000000 (0000ms, 0879ms total)
T10C4 009:614 JLINK_ReadReg(R5)  returns 0x200003A0 (0000ms, 0879ms total)
T10C4 009:614 JLINK_ReadReg(R6)  returns 0x00000000 (0000ms, 0879ms total)
T10C4 009:614 JLINK_ReadReg(R7)  returns 0x00000000 (0000ms, 0879ms total)
T10C4 009:614 JLINK_ReadReg(R8)  returns 0x00000000 (0000ms, 0879ms total)
T10C4 009:614 JLINK_ReadReg(R9)  returns 0x20000160 (0000ms, 0879ms total)
T10C4 009:614 JLINK_ReadReg(R10)  returns 0x08003B30 (0000ms, 0879ms total)
T10C4 009:614 JLINK_ReadReg(R11)  returns 0x00000000 (0000ms, 0879ms total)
T10C4 009:614 JLINK_ReadReg(R12)  returns 0x00000004 (0000ms, 0879ms total)
T10C4 009:614 JLINK_ReadReg(R13 (SP))  returns 0x200009F4 (0000ms, 0879ms total)
T10C4 009:614 JLINK_ReadReg(R14)  returns 0x0800027B (0000ms, 0879ms total)
T10C4 009:614 JLINK_ReadReg(R15 (PC))  returns 0x080004CE (0000ms, 0879ms total)
T10C4 009:614 JLINK_ReadReg(XPSR)  returns 0x01000000 (0000ms, 0879ms total)
T10C4 009:614 JLINK_ReadReg(MSP)  returns 0x200009F4 (0000ms, 0879ms total)
T10C4 009:614 JLINK_ReadReg(PSP)  returns 0x20001000 (0000ms, 0879ms total)
T10C4 009:614 JLINK_ReadReg(CFBP)  returns 0x00000000 (0000ms, 0879ms total)
T2664 009:615 JLINK_ReadMem (0x200009FC, 0x0004 Bytes, ...) -- CPU_ReadMem(64 bytes @ 0x200009C0) -- Updating C cache (64 bytes @ 0x200009C0) -- Read from C cache (4 bytes @ 0x200009FC) - Data: 7B 02 00 08  returns 0x00 (0003ms, 0882ms total)
T2664 009:618 JLINK_ReadMem (0x200009F4, 0x0004 Bytes, ...) -- Read from C cache (4 bytes @ 0x200009F4) - Data: 00 00 00 00  returns 0x00 (0000ms, 0882ms total)
T2664 009:618 JLINK_ReadMem (0x200009F8, 0x0004 Bytes, ...) -- Read from C cache (4 bytes @ 0x200009F8) - Data: A0 03 00 20  returns 0x00 (0000ms, 0882ms total)
T2664 009:618 JLINK_ReadMem (0x00000000, 0x0002 Bytes, ...) -- Read from C cache (2 bytes @ 0x08000000) - Data: 00 0A  returns 0x00 (0000ms, 0882ms total)
T2664 009:618 JLINK_ReadMemU32(0xE0001004, 0x0001 Items, ...) - Data: EA 1C 56 01  returns 0x01 (0000ms, 0882ms total)
T2664 009:618 JLINK_ReadMem (0x40000400, 0x0010 Bytes, ...) -- CPU_ReadMem(16 bytes @ 0x40000400) - Data: 00 00 00 00 00 00 00 00 00 00 00 00 00 00 00 00  returns 0x00 (0001ms, 0883ms total)
T2664 009:619 JLINK_ReadMem (0x40000410, 0x0004 Bytes, ...) -- CPU_ReadMem(4 bytes @ 0x40000410) - Data: 00 00 00 00  returns 0x00 (0002ms, 0885ms total)
T2664 009:621 JLINK_ReadMem (0x40000418, 0x0014 Bytes, ...) -- CPU_ReadMem(20 bytes @ 0x40000418) - Data: 00 00 00 00 00 00 00 00 00 00 00 00 00 00 00 00 ...  returns 0x00 (0000ms, 0885ms total)
T2664 009:621 JLINK_ReadMem (0x4000042C, 0x0004 Bytes, ...) -- CPU_ReadMem(4 bytes @ 0x4000042C) - Data: 00 00 00 00  returns 0x00 (0001ms, 0886ms total)
T2664 009:622 JLINK_ReadMem (0x40000434, 0x000C Bytes, ...) -- CPU_ReadMem(12 bytes @ 0x40000434) - Data: 00 00 00 00 00 00 00 00 00 00 00 00  returns 0x00 (0002ms, 0888ms total)
T2664 009:624 JLINK_ReadMem (0x40000440, 0x0004 Bytes, ...) -- CPU_ReadMem(4 bytes @ 0x40000440) - Data: 00 00 00 00  returns 0x00 (0001ms, 0889ms total)
T2664 009:625 JLINK_ReadMem (0x40000448, 0x0004 Bytes, ...) -- CPU_ReadMem(4 bytes @ 0x40000448) - Data: 00 00 00 00  returns 0x00 (0002ms, 0891ms total)
T2664 009:627 JLINK_ReadMem (0x4000044C, 0x0004 Bytes, ...) -- CPU_ReadMem(4 bytes @ 0x4000044C) - Data: 00 00 00 00  returns 0x00 (0001ms, 0892ms total)
T10C4 010:010 JLINK_ReadMem (0x080004CE, 0x0002 Bytes, ...) -- Read from C cache (2 bytes @ 0x080004CE) - Data: 89 B0  returns 0x00 (0000ms, 0892ms total)
T10C4 010:010 JLINK_ReadMem (0x080004D0, 0x003C Bytes, ...) -- Read from C cache (60 bytes @ 0x080004D0) - Data: 05 46 0C 46 01 21 02 20 01 F0 39 F9 01 21 04 20 ...  returns 0x00 (0000ms, 0892ms total)
T10C4 010:011 JLINK_Step() -- Read from C cache (2 bytes @ 0x080004CE) -- Simulated  returns 0x00 (0000ms, 0892ms total)
T10C4 010:011 JLINK_ReadReg(R15 (PC))  returns 0x080004D0 (0000ms, 0892ms total)
T10C4 010:011 JLINK_ReadReg(XPSR)  returns 0x01000000 (0000ms, 0892ms total)
T10C4 010:011 JLINK_ReadReg(R0)  returns 0x00004E1F (0000ms, 0892ms total)
T10C4 010:011 JLINK_ReadReg(R1)  returns 0x00000047 (0000ms, 0892ms total)
T10C4 010:011 JLINK_ReadReg(R2)  returns 0x00000000 (0000ms, 0892ms total)
T10C4 010:011 JLINK_ReadReg(R3)  returns 0x00000000 (0000ms, 0892ms total)
T10C4 010:011 JLINK_ReadReg(R4)  returns 0x00000000 (0000ms, 0892ms total)
T10C4 010:011 JLINK_ReadReg(R5)  returns 0x200003A0 (0000ms, 0892ms total)
T10C4 010:011 JLINK_ReadReg(R6)  returns 0x00000000 (0000ms, 0892ms total)
T10C4 010:011 JLINK_ReadReg(R7)  returns 0x00000000 (0000ms, 0892ms total)
T10C4 010:011 JLINK_ReadReg(R8)  returns 0x00000000 (0000ms, 0892ms total)
T10C4 010:011 JLINK_ReadReg(R9)  returns 0x20000160 (0000ms, 0892ms total)
T10C4 010:011 JLINK_ReadReg(R10)  returns 0x08003B30 (0000ms, 0892ms total)
T10C4 010:011 JLINK_ReadReg(R11)  returns 0x00000000 (0000ms, 0892ms total)
T10C4 010:011 JLINK_ReadReg(R12)  returns 0x00000004 (0000ms, 0892ms total)
T10C4 010:011 JLINK_ReadReg(R13 (SP))  returns 0x200009D0 (0000ms, 0892ms total)
T10C4 010:011 JLINK_ReadReg(R14)  returns 0x0800027B (0000ms, 0892ms total)
T10C4 010:011 JLINK_ReadReg(R15 (PC))  returns 0x080004D0 (0000ms, 0892ms total)
T10C4 010:012 JLINK_ReadReg(XPSR)  returns 0x01000000 (0000ms, 0893ms total)
T10C4 010:012 JLINK_ReadReg(MSP)  returns 0x200009D0 (0000ms, 0893ms total)
T10C4 010:012 JLINK_ReadReg(PSP)  returns 0x20001000 (0000ms, 0893ms total)
T10C4 010:012 JLINK_ReadReg(CFBP)  returns 0x00000000 (0000ms, 0893ms total)
T2664 010:012 JLINK_ReadMem (0x200009FC, 0x0004 Bytes, ...) -- Read from C cache (4 bytes @ 0x200009FC) - Data: 7B 02 00 08  returns 0x00 (0000ms, 0893ms total)
T2664 010:012 JLINK_ReadMem (0x200009F4, 0x0004 Bytes, ...) -- Read from C cache (4 bytes @ 0x200009F4) - Data: 00 00 00 00  returns 0x00 (0000ms, 0893ms total)
T2664 010:012 JLINK_ReadMem (0x200009F8, 0x0004 Bytes, ...) -- Read from C cache (4 bytes @ 0x200009F8) - Data: A0 03 00 20  returns 0x00 (0000ms, 0893ms total)
T2664 010:012 JLINK_ReadMem (0x00000000, 0x0002 Bytes, ...) -- Read from C cache (2 bytes @ 0x08000000) - Data: 00 0A  returns 0x00 (0000ms, 0893ms total)
T2664 010:012 JLINK_ReadMemU32(0xE0001004, 0x0001 Items, ...) - Data: EA 1C 56 01  returns 0x01 (0000ms, 0893ms total)
T2664 010:013 JLINK_ReadMem (0x40000400, 0x0010 Bytes, ...) -- CPU_ReadMem(16 bytes @ 0x40000400) - Data: 00 00 00 00 00 00 00 00 00 00 00 00 00 00 00 00  returns 0x00 (0001ms, 0894ms total)
T2664 010:014 JLINK_ReadMem (0x40000410, 0x0004 Bytes, ...) -- CPU_ReadMem(4 bytes @ 0x40000410) - Data: 00 00 00 00  returns 0x00 (0001ms, 0895ms total)
T2664 010:015 JLINK_ReadMem (0x40000418, 0x0014 Bytes, ...) -- CPU_ReadMem(20 bytes @ 0x40000418) - Data: 00 00 00 00 00 00 00 00 00 00 00 00 00 00 00 00 ...  returns 0x00 (0001ms, 0896ms total)
T2664 010:016 JLINK_ReadMem (0x4000042C, 0x0004 Bytes, ...) -- CPU_ReadMem(4 bytes @ 0x4000042C) - Data: 00 00 00 00  returns 0x00 (0001ms, 0897ms total)
T2664 010:017 JLINK_ReadMem (0x40000434, 0x000C Bytes, ...) -- CPU_ReadMem(12 bytes @ 0x40000434) - Data: 00 00 00 00 00 00 00 00 00 00 00 00  returns 0x00 (0002ms, 0899ms total)
T2664 010:019 JLINK_ReadMem (0x40000440, 0x0004 Bytes, ...) -- CPU_ReadMem(4 bytes @ 0x40000440) - Data: 00 00 00 00  returns 0x00 (0001ms, 0900ms total)
T2664 010:020 JLINK_ReadMem (0x40000448, 0x0004 Bytes, ...) -- CPU_ReadMem(4 bytes @ 0x40000448) - Data: 00 00 00 00  returns 0x00 (0001ms, 0901ms total)
T2664 010:021 JLINK_ReadMem (0x4000044C, 0x0004 Bytes, ...) -- CPU_ReadMem(4 bytes @ 0x4000044C) - Data: 00 00 00 00  returns 0x00 (0001ms, 0902ms total)
T2664 010:027 JLINK_ReadMem (0x080004D0, 0x003C Bytes, ...) -- Read from C cache (60 bytes @ 0x080004D0) - Data: 05 46 0C 46 01 21 02 20 01 F0 39 F9 01 21 04 20 ...  returns 0x00 (0000ms, 0902ms total)
T10C4 010:169 JLINK_Step() -- Read from C cache (2 bytes @ 0x080004D0) -- Simulated  returns 0x00 (0001ms, 0903ms total)
T10C4 010:171 JLINK_ReadReg(R15 (PC))  returns 0x080004D2 (0000ms, 0903ms total)
T10C4 010:171 JLINK_ReadReg(XPSR)  returns 0x01000000 (0000ms, 0903ms total)
T10C4 010:171 JLINK_ReadReg(R0)  returns 0x00004E1F (0000ms, 0903ms total)
T10C4 010:171 JLINK_ReadReg(R1)  returns 0x00000047 (0000ms, 0903ms total)
T10C4 010:171 JLINK_ReadReg(R2)  returns 0x00000000 (0000ms, 0903ms total)
T10C4 010:171 JLINK_ReadReg(R3)  returns 0x00000000 (0000ms, 0903ms total)
T10C4 010:171 JLINK_ReadReg(R4)  returns 0x00000000 (0000ms, 0903ms total)
T10C4 010:171 JLINK_ReadReg(R5)  returns 0x00004E1F (0000ms, 0903ms total)
T10C4 010:171 JLINK_ReadReg(R6)  returns 0x00000000 (0000ms, 0903ms total)
T10C4 010:171 JLINK_ReadReg(R7)  returns 0x00000000 (0000ms, 0903ms total)
T10C4 010:171 JLINK_ReadReg(R8)  returns 0x00000000 (0000ms, 0903ms total)
T10C4 010:171 JLINK_ReadReg(R9)  returns 0x20000160 (0000ms, 0903ms total)
T10C4 010:171 JLINK_ReadReg(R10)  returns 0x08003B30 (0000ms, 0903ms total)
T10C4 010:171 JLINK_ReadReg(R11)  returns 0x00000000 (0000ms, 0903ms total)
T10C4 010:171 JLINK_ReadReg(R12)  returns 0x00000004 (0000ms, 0903ms total)
T10C4 010:171 JLINK_ReadReg(R13 (SP))  returns 0x200009D0 (0000ms, 0903ms total)
T10C4 010:171 JLINK_ReadReg(R14)  returns 0x0800027B (0000ms, 0903ms total)
T10C4 010:171 JLINK_ReadReg(R15 (PC))  returns 0x080004D2 (0000ms, 0903ms total)
T10C4 010:171 JLINK_ReadReg(XPSR)  returns 0x01000000 (0000ms, 0903ms total)
T10C4 010:171 JLINK_ReadReg(MSP)  returns 0x200009D0 (0001ms, 0904ms total)
T10C4 010:172 JLINK_ReadReg(PSP)  returns 0x20001000 (0000ms, 0904ms total)
T10C4 010:172 JLINK_ReadReg(CFBP)  returns 0x00000000 (0000ms, 0904ms total)
T2664 010:175 JLINK_ReadMem (0x200009FC, 0x0004 Bytes, ...) -- Read from C cache (4 bytes @ 0x200009FC) - Data: 7B 02 00 08  returns 0x00 (0000ms, 0904ms total)
T2664 010:175 JLINK_ReadMem (0x200009F4, 0x0004 Bytes, ...) -- Read from C cache (4 bytes @ 0x200009F4) - Data: 00 00 00 00  returns 0x00 (0000ms, 0904ms total)
T2664 010:175 JLINK_ReadMem (0x200009F8, 0x0004 Bytes, ...) -- Read from C cache (4 bytes @ 0x200009F8) - Data: A0 03 00 20  returns 0x00 (0000ms, 0904ms total)
T2664 010:175 JLINK_ReadMem (0x00000000, 0x0002 Bytes, ...) -- Read from C cache (2 bytes @ 0x08000000) - Data: 00 0A  returns 0x00 (0000ms, 0904ms total)
T2664 010:176 JLINK_ReadMemU32(0xE0001004, 0x0001 Items, ...) - Data: EA 1C 56 01  returns 0x01 (0000ms, 0904ms total)
T2664 010:176 JLINK_ReadMem (0x40000400, 0x0010 Bytes, ...) -- CPU_ReadMem(16 bytes @ 0x40000400) - Data: 00 00 00 00 00 00 00 00 00 00 00 00 00 00 00 00  returns 0x00 (0001ms, 0905ms total)
T2664 010:177 JLINK_ReadMem (0x40000410, 0x0004 Bytes, ...) -- CPU_ReadMem(4 bytes @ 0x40000410) - Data: 00 00 00 00  returns 0x00 (0001ms, 0906ms total)
T2664 010:178 JLINK_ReadMem (0x40000418, 0x0014 Bytes, ...) -- CPU_ReadMem(20 bytes @ 0x40000418) - Data: 00 00 00 00 00 00 00 00 00 00 00 00 00 00 00 00 ...  returns 0x00 (0002ms, 0908ms total)
T2664 010:180 JLINK_ReadMem (0x4000042C, 0x0004 Bytes, ...) -- CPU_ReadMem(4 bytes @ 0x4000042C) - Data: 00 00 00 00  returns 0x00 (0001ms, 0909ms total)
T2664 010:181 JLINK_ReadMem (0x40000434, 0x000C Bytes, ...) -- CPU_ReadMem(12 bytes @ 0x40000434) - Data: 00 00 00 00 00 00 00 00 00 00 00 00  returns 0x00 (0001ms, 0910ms total)
T2664 010:182 JLINK_ReadMem (0x40000440, 0x0004 Bytes, ...) -- CPU_ReadMem(4 bytes @ 0x40000440) - Data: 00 00 00 00  returns 0x00 (0002ms, 0912ms total)
T2664 010:184 JLINK_ReadMem (0x40000448, 0x0004 Bytes, ...) -- CPU_ReadMem(4 bytes @ 0x40000448) - Data: 00 00 00 00  returns 0x00 (0001ms, 0913ms total)
T2664 010:185 JLINK_ReadMem (0x4000044C, 0x0004 Bytes, ...) -- CPU_ReadMem(4 bytes @ 0x4000044C) - Data: 00 00 00 00  returns 0x00 (0001ms, 0914ms total)
T10C4 010:352 JLINK_ReadMem (0x080004D2, 0x0002 Bytes, ...) -- Read from C cache (2 bytes @ 0x080004D2) - Data: 0C 46  returns 0x00 (0000ms, 0914ms total)
T10C4 010:352 JLINK_ReadMem (0x080004D4, 0x003C Bytes, ...) -- Read from C cache (60 bytes @ 0x080004D4) - Data: 01 21 02 20 01 F0 39 F9 01 21 04 20 01 F0 28 F9 ...  returns 0x00 (0000ms, 0914ms total)
T10C4 010:352 JLINK_Step() -- Read from C cache (2 bytes @ 0x080004D2) -- Simulated  returns 0x00 (0000ms, 0914ms total)
T10C4 010:352 JLINK_ReadReg(R15 (PC))  returns 0x080004D4 (0000ms, 0914ms total)
T10C4 010:352 JLINK_ReadReg(XPSR)  returns 0x01000000 (0000ms, 0914ms total)
T10C4 010:352 JLINK_ReadReg(R0)  returns 0x00004E1F (0000ms, 0914ms total)
T10C4 010:352 JLINK_ReadReg(R1)  returns 0x00000047 (0000ms, 0914ms total)
T10C4 010:352 JLINK_ReadReg(R2)  returns 0x00000000 (0000ms, 0914ms total)
T10C4 010:352 JLINK_ReadReg(R3)  returns 0x00000000 (0001ms, 0915ms total)
T10C4 010:353 JLINK_ReadReg(R4)  returns 0x00000047 (0000ms, 0915ms total)
T10C4 010:353 JLINK_ReadReg(R5)  returns 0x00004E1F (0000ms, 0915ms total)
T10C4 010:353 JLINK_ReadReg(R6)  returns 0x00000000 (0000ms, 0915ms total)
T10C4 010:353 JLINK_ReadReg(R7)  returns 0x00000000 (0000ms, 0915ms total)
T10C4 010:353 JLINK_ReadReg(R8)  returns 0x00000000 (0000ms, 0915ms total)
T10C4 010:353 JLINK_ReadReg(R9)  returns 0x20000160 (0000ms, 0915ms total)
T10C4 010:353 JLINK_ReadReg(R10)  returns 0x08003B30 (0000ms, 0915ms total)
T10C4 010:353 JLINK_ReadReg(R11)  returns 0x00000000 (0000ms, 0915ms total)
T10C4 010:353 JLINK_ReadReg(R12)  returns 0x00000004 (0000ms, 0915ms total)
T10C4 010:353 JLINK_ReadReg(R13 (SP))  returns 0x200009D0 (0000ms, 0915ms total)
T10C4 010:353 JLINK_ReadReg(R14)  returns 0x0800027B (0000ms, 0915ms total)
T10C4 010:353 JLINK_ReadReg(R15 (PC))  returns 0x080004D4 (0000ms, 0915ms total)
T10C4 010:353 JLINK_ReadReg(XPSR)  returns 0x01000000 (0000ms, 0915ms total)
T10C4 010:353 JLINK_ReadReg(MSP)  returns 0x200009D0 (0000ms, 0915ms total)
T10C4 010:353 JLINK_ReadReg(PSP)  returns 0x20001000 (0000ms, 0915ms total)
T10C4 010:353 JLINK_ReadReg(CFBP)  returns 0x00000000 (0000ms, 0915ms total)
T2664 010:355 JLINK_ReadMem (0x200009FC, 0x0004 Bytes, ...) -- Read from C cache (4 bytes @ 0x200009FC) - Data: 7B 02 00 08  returns 0x00 (0000ms, 0915ms total)
T2664 010:355 JLINK_ReadMem (0x200009F4, 0x0004 Bytes, ...) -- Read from C cache (4 bytes @ 0x200009F4) - Data: 00 00 00 00  returns 0x00 (0000ms, 0915ms total)
T2664 010:355 JLINK_ReadMem (0x200009F8, 0x0004 Bytes, ...) -- Read from C cache (4 bytes @ 0x200009F8) - Data: A0 03 00 20  returns 0x00 (0000ms, 0915ms total)
T2664 010:356 JLINK_ReadMemU32(0xE0001004, 0x0001 Items, ...) - Data: EA 1C 56 01  returns 0x01 (0000ms, 0915ms total)
T2664 010:356 JLINK_ReadMem (0x40000400, 0x0010 Bytes, ...) -- CPU_ReadMem(16 bytes @ 0x40000400) - Data: 00 00 00 00 00 00 00 00 00 00 00 00 00 00 00 00  returns 0x00 (0002ms, 0917ms total)
T2664 010:358 JLINK_ReadMem (0x40000410, 0x0004 Bytes, ...) -- CPU_ReadMem(4 bytes @ 0x40000410) - Data: 00 00 00 00  returns 0x00 (0001ms, 0918ms total)
T2664 010:359 JLINK_ReadMem (0x40000418, 0x0014 Bytes, ...) -- CPU_ReadMem(20 bytes @ 0x40000418) - Data: 00 00 00 00 00 00 00 00 00 00 00 00 00 00 00 00 ...  returns 0x00 (0002ms, 0920ms total)
T2664 010:361 JLINK_ReadMem (0x4000042C, 0x0004 Bytes, ...) -- CPU_ReadMem(4 bytes @ 0x4000042C) - Data: 00 00 00 00  returns 0x00 (0001ms, 0921ms total)
T2664 010:362 JLINK_ReadMem (0x40000434, 0x000C Bytes, ...) -- CPU_ReadMem(12 bytes @ 0x40000434) - Data: 00 00 00 00 00 00 00 00 00 00 00 00  returns 0x00 (0001ms, 0922ms total)
T2664 010:363 JLINK_ReadMem (0x40000440, 0x0004 Bytes, ...) -- CPU_ReadMem(4 bytes @ 0x40000440) - Data: 00 00 00 00  returns 0x00 (0001ms, 0923ms total)
T2664 010:364 JLINK_ReadMem (0x40000448, 0x0004 Bytes, ...) -- CPU_ReadMem(4 bytes @ 0x40000448) - Data: 00 00 00 00  returns 0x00 (0001ms, 0924ms total)
T2664 010:365 JLINK_ReadMem (0x4000044C, 0x0004 Bytes, ...) -- CPU_ReadMem(4 bytes @ 0x4000044C) - Data: 00 00 00 00  returns 0x00 (0002ms, 0926ms total)
T2664 010:386 JLINK_ReadMem (0x080004D0, 0x003C Bytes, ...) -- Read from C cache (60 bytes @ 0x080004D0) - Data: 05 46 0C 46 01 21 02 20 01 F0 39 F9 01 21 04 20 ...  returns 0x00 (0001ms, 0927ms total)
T10C4 010:511 JLINK_Step() -- Read from C cache (2 bytes @ 0x080004D4) -- Simulated  returns 0x00 (0000ms, 0927ms total)
T10C4 010:511 JLINK_ReadReg(R15 (PC))  returns 0x080004D6 (0000ms, 0927ms total)
T10C4 010:511 JLINK_ReadReg(XPSR)  returns 0x01000000 (0000ms, 0927ms total)
T10C4 010:512 JLINK_ReadReg(R0)  returns 0x00004E1F (0000ms, 0927ms total)
T10C4 010:512 JLINK_ReadReg(R1)  returns 0x00000001 (0000ms, 0927ms total)
T10C4 010:512 JLINK_ReadReg(R2)  returns 0x00000000 (0000ms, 0927ms total)
T10C4 010:512 JLINK_ReadReg(R3)  returns 0x00000000 (0000ms, 0927ms total)
T10C4 010:512 JLINK_ReadReg(R4)  returns 0x00000047 (0000ms, 0927ms total)
T10C4 010:512 JLINK_ReadReg(R5)  returns 0x00004E1F (0000ms, 0927ms total)
T10C4 010:512 JLINK_ReadReg(R6)  returns 0x00000000 (0000ms, 0927ms total)
T10C4 010:512 JLINK_ReadReg(R7)  returns 0x00000000 (0000ms, 0927ms total)
T10C4 010:512 JLINK_ReadReg(R8)  returns 0x00000000 (0000ms, 0927ms total)
T10C4 010:512 JLINK_ReadReg(R9)  returns 0x20000160 (0000ms, 0927ms total)
T10C4 010:512 JLINK_ReadReg(R10)  returns 0x08003B30 (0000ms, 0927ms total)
T10C4 010:512 JLINK_ReadReg(R11)  returns 0x00000000 (0000ms, 0927ms total)
T10C4 010:512 JLINK_ReadReg(R12)  returns 0x00000004 (0000ms, 0927ms total)
